#   Hz   S  RI   R   50
!
0.000000e+00 3.745684e-03 0.000000e+00 3.003847e-04 0.000000e+00 9.956686e-01 0.000000e+00 -2.042922e-04 0.000000e+00 3.004247e-04 0.000000e+00 3.761503e-03 0.000000e+00 -2.027315e-04 0.000000e+00 9.956241e-01 0.000000e+00 9.956963e-01 0.000000e+00 -2.100142e-04 0.000000e+00 3.722561e-03 0.000000e+00 3.205852e-04 0.000000e+00 -2.089178e-04 0.000000e+00 9.956576e-01 0.000000e+00 3.205291e-04 0.000000e+00 3.730744e-03 0.000000e+00
8.750000e+08 3.746692e-03 1.048434e-04 3.011155e-04 1.332839e-04 9.956640e-01 -2.041335e-03 -2.042959e-04 5.415812e-05 3.011548e-04 1.332656e-04 3.762600e-03 1.282981e-04 -2.027336e-04 5.483172e-05 9.956195e-01 -2.047717e-03 9.956916e-01 -2.055836e-03 -2.100670e-04 4.860277e-05 3.725286e-03 1.020812e-04 3.208425e-04 1.411244e-04 -2.089656e-04 4.941616e-05 9.956528e-01 -2.058134e-03 3.207855e-04 1.415261e-04 3.733478e-03 1.273142e-04
1.750000e+09 3.749708e-03 2.094727e-04 3.033062e-04 2.665240e-04 9.956505e-01 -4.082300e-03 -2.043066e-04 1.083276e-04 3.033435e-04 2.664874e-04 3.765884e-03 2.563801e-04 -2.027395e-04 1.096745e-04 9.956059e-01 -4.095060e-03 9.956774e-01 -4.111256e-03 -2.102245e-04 9.722325e-05 3.733452e-03 2.039382e-04 3.216130e-04 2.822165e-04 -2.091084e-04 9.884989e-05 9.956386e-01 -4.115848e-03 3.215536e-04 2.830201e-04 3.741674e-03 2.544036e-04
2.625000e+09 3.754705e-03 3.136756e-04 3.069517e-04 3.996766e-04 9.956280e-01 -6.122527e-03 -2.043233e-04 1.625199e-04 3.069857e-04 3.996218e-04 3.771328e-03 3.840317e-04 -2.027483e-04 1.645393e-04 9.955832e-01 -6.141657e-03 9.956539e-01 -6.165846e-03 -2.104850e-04 1.458791e-04 3.747034e-03 3.053485e-04 3.228929e-04 4.232440e-04 -2.093444e-04 1.483187e-04 9.956150e-01 -6.172728e-03 3.228294e-04 4.244499e-04 3.755305e-03 3.810449e-04
3.500000e+09 3.761640e-03 4.172428e-04 3.120436e-04 5.326988e-04 9.955965e-01 -8.161653e-03 -2.043442e-04 2.167462e-04 3.120729e-04 5.326262e-04 3.778890e-03 5.110417e-04 -2.027583e-04 2.194372e-04 9.955515e-01 -8.187144e-03 9.956211e-01 -8.219200e-03 -2.108452e-04 1.945876e-04 3.765991e-03 4.060922e-04 3.246757e-04 5.641754e-04 -2.096703e-04 1.978397e-04 9.955820e-01 -8.228365e-03 3.246065e-04 5.657842e-04 3.774330e-03 5.070179e-04
4.375000e+09 3.770455e-03 5.199700e-04 3.185701e-04 6.655488e-04 9.955563e-01 -1.019933e-02 -2.043671e-04 2.710177e-04 3.185935e-04 6.654587e-04 3.788509e-03 6.372038e-04 -2.027672e-04 2.743788e-04 9.955109e-01 -1.023116e-02 9.955791e-01 -1.027092e-02 -2.113008e-04 2.433659e-04 3.790265e-03 5.059541e-04 3.269526e-04 7.049798e-04 -2.100819e-04 2.474300e-04 9.955399e-01 -1.028236e-02 3.268760e-04 7.069924e-04 3.798693e-03 6.321065e-04
5.250000e+09 3.781074e-03 6.216590e-04 3.265165e-04 7.981862e-04 9.955074e-01 -1.223521e-02 -2.043887e-04 3.253452e-04 3.265328e-04 7.980788e-04 3.800111e-03 7.623181e-04 -2.027720e-04 3.293747e-04 9.954616e-01 -1.227337e-02 9.955281e-01 -1.232064e-02 -2.118460e-04 2.922305e-04 3.819784e-03 6.047244e-04 3.297123e-04 8.456275e-04 -2.105736e-04 2.971060e-04 9.954887e-01 -1.233434e-02 3.296265e-04 8.480448e-04 3.828318e-03 7.561006e-04
6.125000e+09 3.793407e-03 7.221197e-04 3.358651e-04 9.305719e-04 9.954500e-01 -1.426896e-02 -2.044055e-04 3.797395e-04 3.358730e-04 9.304478e-04 3.813603e-03 8.861925e-04 -2.027692e-04 3.844355e-04 9.954037e-01 -1.431344e-02 9.954682e-01 -1.436798e-02 -2.124743e-04 3.411978e-04 3.854460e-03 7.022004e-04 3.329412e-04 9.860897e-04 -2.111388e-04 3.468837e-04 9.954286e-01 -1.438392e-02 3.328446e-04 9.889130e-04 3.863120e-03 8.787968e-04
7.000000e+09 3.807348e-03 8.211707e-04 3.465953e-04 1.062669e-03 9.953842e-01 -1.630029e-02 -2.044132e-04 4.342109e-04 3.465938e-04 1.062529e-03 3.828881e-03 1.008644e-03 -2.027545e-04 4.395711e-04 9.953374e-01 -1.635105e-02 9.953998e-01 -1.641260e-02 -2.131776e-04 3.902830e-04 3.894191e-03 7.981879e-04 3.366237e-04 1.126340e-03 -2.117696e-04 3.967785e-04 9.953599e-01 -1.643078e-02 3.365144e-04 1.129570e-03 3.902995e-03 1.000000e-03
7.875000e+09 3.822780e-03 9.186411e-04 3.586841e-04 1.194443e-03 9.953103e-01 -1.832889e-02 -2.044067e-04 4.887697e-04 3.586721e-04 1.194287e-03 3.845826e-03 1.129500e-03 -2.027233e-04 4.947914e-04 9.952629e-01 -1.838591e-02 9.953229e-01 -1.845418e-02 -2.139473e-04 4.395010e-04 3.938862e-03 8.925017e-04 3.407420e-04 1.266351e-03 -2.124574e-04 4.468051e-04 9.952827e-01 -1.847457e-02 3.406183e-04 1.269991e-03 3.947829e-03 1.119526e-03
8.750000e+09 3.839572e-03 1.014371e-03 3.721062e-04 1.325861e-03 9.952285e-01 -2.035449e-02 -2.043808e-04 5.434255e-04 3.720828e-04 1.325689e-03 3.864307e-03 1.248599e-03 -2.026701e-04 5.501059e-04 9.951804e-01 -2.041775e-02 9.952380e-01 -2.049243e-02 -2.147734e-04 4.888659e-04 3.988346e-03 9.849671e-04 3.452768e-04 1.406101e-03 -2.131924e-04 4.969774e-04 9.951974e-01 -2.051502e-02 3.451368e-04 1.410152e-03 3.997494e-03 1.237198e-03
9.625000e+09 3.857583e-03 1.108214e-03 3.868344e-04 1.456893e-03 9.951390e-01 -2.237686e-02 -2.043293e-04 5.981878e-04 3.867985e-04 1.456707e-03 3.884181e-03 1.365793e-03 -2.025893e-04 6.055238e-04 9.950902e-01 -2.244631e-02 9.951452e-01 -2.252708e-02 -2.156454e-04 5.383908e-04 4.042506e-03 1.075421e-03 3.502069e-04 1.545568e-03 -2.139642e-04 5.473084e-04 9.951042e-01 -2.255184e-02 3.500486e-04 1.550031e-03 4.051852e-03 1.352853e-03
1.050000e+10 3.876660e-03 1.200036e-03 4.028395e-04 1.587512e-03 9.950421e-01 -2.439575e-02 -2.042458e-04 6.530654e-04 4.027904e-04 1.587313e-03 3.905297e-03 1.480947e-03 -2.024745e-04 6.610537e-04 9.949925e-01 -2.447137e-02 9.950448e-01 -2.455790e-02 -2.165517e-04 5.880879e-04 4.101193e-03 1.163712e-03 3.555099e-04 1.684732e-03 -2.147615e-04 5.978104e-04 9.950035e-01 -2.458481e-02 3.553314e-04 1.689610e-03 4.110754e-03 1.466340e-03
1.137500e+10 3.896645e-03 1.289717e-03 4.200911e-04 1.717694e-03 9.949381e-01 -2.641097e-02 -2.041232e-04 7.080669e-04 4.200279e-04 1.717482e-03 3.927493e-03 1.593938e-03 -2.023189e-04 7.167040e-04 9.948876e-01 -2.649272e-02 9.949373e-01 -2.658466e-02 -2.174802e-04 6.379686e-04 4.164251e-03 1.249701e-03 3.611620e-04 1.823576e-03 -2.155721e-04 6.484945e-04 9.948955e-01 -2.661370e-02 3.609612e-04 1.828870e-03 4.174044e-03 1.577520e-03
1.225000e+10 3.917371e-03 1.377151e-03 4.385575e-04 1.847418e-03 9.948272e-01 -2.842235e-02 -2.039543e-04 7.632003e-04 4.384796e-04 1.847193e-03 3.950603e-03 1.704661e-03 -2.021153e-04 7.724825e-04 9.947758e-01 -2.851020e-02 9.948228e-01 -2.860721e-02 -2.184181e-04 6.880432e-04 4.231516e-03 1.333263e-03 3.671386e-04 1.962085e-03 -2.163836e-04 6.993711e-04 9.947807e-01 -2.863835e-02 3.669135e-04 1.967798e-03 4.241558e-03 1.686266e-03
1.312500e+10 3.938664e-03 1.462247e-03 4.582064e-04 1.976664e-03 9.947097e-01 -3.042975e-02 -2.037313e-04 8.184732e-04 4.581132e-04 1.976428e-03 3.974454e-03 1.813023e-03 -2.018563e-04 8.283967e-04 9.946574e-01 -3.052365e-02 9.947018e-01 -3.062538e-02 -2.193523e-04 7.383211e-04 4.302818e-03 1.414286e-03 3.734143e-04 2.100245e-03 -2.171829e-04 7.504494e-04 9.946592e-01 -3.065860e-02 3.731626e-04 2.106381e-03 4.313125e-03 1.792468e-03
1.400000e+10 3.960349e-03 1.544930e-03 4.790048e-04 2.105419e-03 9.945860e-01 -3.243303e-02 -2.034460e-04 8.738926e-04 4.788957e-04 2.105172e-03 3.998867e-03 1.918948e-03 -2.015338e-04 8.844533e-04 9.945326e-01 -3.253295e-02 9.945746e-01 -3.263908e-02 -2.202690e-04 7.888104e-04 4.377983e-03 1.492672e-03 3.799629e-04 2.238048e-03 -2.179564e-04 8.017376e-04 9.945315e-01 -3.267434e-02 3.796825e-04 2.244608e-03 4.388570e-03 1.896027e-03
1.487500e+10 3.982246e-03 1.625139e-03 5.009196e-04 2.233670e-03 9.944563e-01 -3.443212e-02 -2.030899e-04 9.294650e-04 5.007942e-04 2.233412e-03 4.023662e-03 2.022375e-03 -2.011397e-04 9.406589e-04 9.944018e-01 -3.453802e-02 9.944415e-01 -3.464821e-02 -2.211543e-04 8.395183e-04 4.456832e-03 1.568338e-03 3.867583e-04 2.375485e-03 -2.186904e-04 8.532428e-04 9.943978e-01 -3.468550e-02 3.864467e-04 2.382472e-03 4.467715e-03 1.996859e-03
1.575000e+10 4.004173e-03 1.702829e-03 5.239176e-04 2.361406e-03 9.943209e-01 -3.642694e-02 -2.026545e-04 9.851964e-04 5.237755e-04 2.361139e-03 4.048658e-03 2.123256e-03 -2.006655e-04 9.970192e-04 9.942654e-01 -3.653877e-02 9.943028e-01 -3.665274e-02 -2.219940e-04 8.904511e-04 4.539186e-03 1.641213e-03 3.937739e-04 2.512550e-03 -2.193708e-04 9.049712e-04 9.942587e-01 -3.669203e-02 3.934289e-04 2.519967e-03 4.550379e-03 2.094894e-03
1.662500e+10 4.025949e-03 1.777969e-03 5.479661e-04 2.488623e-03 9.941801e-01 -3.841745e-02 -2.021307e-04 1.041092e-03 5.478071e-04 2.488347e-03 4.073673e-03 2.221561e-03 -2.001025e-04 1.053540e-03 9.941235e-01 -3.853518e-02 9.941589e-01 -3.865264e-02 -2.227738e-04 9.416138e-04 4.624863e-03 1.711241e-03 4.009835e-04 2.649241e-03 -2.199835e-04 9.569278e-04 9.941143e-01 -3.869389e-02 4.006027e-04 2.657091e-03 4.636382e-03 2.190076e-03
1.750000e+10 4.047395e-03 1.850542e-03 5.730331e-04 2.615316e-03 9.940343e-01 -4.040365e-02 -2.015094e-04 1.097157e-03 5.728569e-04 2.615032e-03 4.098526e-03 2.317272e-03 -1.994418e-04 1.110225e-03 9.939764e-01 -4.052723e-02 9.940102e-01 -4.064792e-02 -2.234792e-04 9.930104e-04 4.713683e-03 1.778380e-03 4.083611e-04 2.785557e-03 -2.205143e-04 1.009117e-03 9.939650e-01 -4.069112e-02 4.079418e-04 2.793843e-03 4.725541e-03 2.282364e-03
1.837500e+10 4.068332e-03 1.920548e-03 5.990873e-04 2.741484e-03 9.938836e-01 -4.238554e-02 -2.007815e-04 1.153396e-03 5.988938e-04 2.741193e-03 4.123039e-03 2.410388e-03 -1.986744e-04 1.167080e-03 9.938246e-01 -4.251493e-02 9.938569e-01 -4.263862e-02 -2.240960e-04 1.044644e-03 4.805466e-03 1.842600e-03 4.158811e-04 2.921499e-03 -2.209490e-04 1.061541e-03 9.938112e-01 -4.268374e-02 4.154208e-04 2.930225e-03 4.817678e-03 2.371727e-03
1.925000e+10 4.088586e-03 1.987997e-03 6.260987e-04 2.867129e-03 9.937285e-01 -4.436315e-02 -1.999374e-04 1.209812e-03 6.258878e-04 2.866831e-03 4.147036e-03 2.500919e-03 -1.977911e-04 1.224108e-03 9.936682e-01 -4.449832e-02 9.936993e-01 -4.462482e-02 -2.246101e-04 1.096517e-03 4.900036e-03 1.903885e-03 4.235187e-04 3.057071e-03 -2.212736e-04 1.114203e-03 9.936531e-01 -4.467182e-02 4.230147e-04 3.066240e-03 4.912615e-03 2.458150e-03
2.012500e+10 4.107988e-03 2.052914e-03 6.540385e-04 2.992255e-03 9.935690e-01 -4.633655e-02 -1.989679e-04 1.266409e-03 6.538102e-04 2.991950e-03 4.170349e-03 2.588890e-03 -1.967827e-04 1.281313e-03 9.935075e-01 -4.647746e-02 9.935378e-01 -4.660659e-02 -2.250073e-04 1.148630e-03 4.997219e-03 1.962230e-03 4.312499e-04 3.192278e-03 -2.214743e-04 1.167103e-03 9.934910e-01 -4.665546e-02 4.306995e-04 3.201893e-03 5.010180e-03 2.541628e-03
2.100000e+10 4.126374e-03 2.115336e-03 6.828795e-04 3.116868e-03 9.934056e-01 -4.830581e-02 -1.978634e-04 1.323189e-03 6.826337e-04 3.116557e-03 4.192812e-03 2.674337e-03 -1.956399e-04 1.338696e-03 9.933428e-01 -4.845241e-02 9.933726e-01 -4.858407e-02 -2.252740e-04 1.200983e-03 5.096847e-03 2.017643e-03 4.390516e-04 3.327129e-03 -2.215374e-04 1.220242e-03 9.933252e-01 -4.863478e-02 4.384521e-04 3.337193e-03 5.110204e-03 2.622169e-03
2.187500e+10 4.143584e-03 2.175312e-03 7.125959e-04 3.240976e-03 9.932385e-01 -5.027103e-02 -1.966144e-04 1.380154e-03 7.123329e-04 3.240659e-03 4.214268e-03 2.757307e-03 -1.943534e-04 1.396261e-03 9.931743e-01 -5.042329e-02 9.932039e-01 -5.055737e-02 -2.253967e-04 1.253576e-03 5.198758e-03 2.070142e-03 4.469020e-04 3.461632e-03 -2.214499e-04 1.273619e-03 9.931560e-01 -5.060990e-02 4.462505e-04 3.472150e-03 5.212523e-03 2.699792e-03
2.275000e+10 4.159470e-03 2.232899e-03 7.431642e-04 3.364588e-03 9.930678e-01 -5.223232e-02 -1.952115e-04 1.437307e-03 7.428839e-04 3.364267e-03 4.234564e-03 2.837861e-03 -1.929139e-04 1.454009e-03 9.930023e-01 -5.239020e-02 9.930321e-01 -5.252666e-02 -2.253626e-04 1.306407e-03 5.302793e-03 2.119756e-03 4.547805e-04 3.595798e-03 -2.211987e-04 1.327233e-03 9.929836e-01 -5.258098e-02 4.540739e-04 3.606773e-03 5.316980e-03 2.774525e-03
2.362500e+10 4.173888e-03 2.288167e-03 7.745623e-04 3.487716e-03 9.928938e-01 -5.418982e-02 -1.936454e-04 1.494648e-03 7.742650e-04 3.487390e-03 4.253560e-03 2.916064e-03 -1.913124e-04 1.511942e-03 9.928270e-01 -5.435328e-02 9.928573e-01 -5.449211e-02 -2.251590e-04 1.359474e-03 5.408804e-03 2.166522e-03 4.626677e-04 3.729641e-03 -2.207715e-04 1.381081e-03 9.928083e-01 -5.454819e-02 4.619032e-04 3.741076e-03 5.423426e-03 2.846407e-03
2.450000e+10 4.186703e-03 2.341193e-03 8.067704e-04 3.610374e-03 9.927167e-01 -5.614366e-02 -1.919068e-04 1.552178e-03 8.064563e-04 3.610043e-03 4.271119e-03 2.991996e-03 -1.895396e-04 1.570059e-03 9.926485e-01 -5.631268e-02 9.926797e-01 -5.645389e-02 -2.247738e-04 1.412775e-03 5.516646e-03 2.210487e-03 4.705458e-04 3.863173e-03 -2.201563e-04 1.435161e-03 9.926301e-01 -5.651172e-02 4.697202e-04 3.875072e-03 5.531718e-03 2.915485e-03
2.537500e+10 4.197790e-03 2.392062e-03 8.397707e-04 3.732573e-03 9.925367e-01 -5.809401e-02 -1.899865e-04 1.609896e-03 8.394399e-04 3.732238e-03 4.287117e-03 3.065740e-03 -1.875865e-04 1.628362e-03 9.924671e-01 -5.826855e-02 9.924995e-01 -5.841221e-02 -2.241956e-04 1.466305e-03 5.626187e-03 2.251705e-03 4.783984e-04 3.996410e-03 -2.193417e-04 1.489469e-03 9.924494e-01 -5.847177e-02 4.775087e-04 4.008776e-03 5.641721e-03 2.981813e-03
2.625000e+10 4.207033e-03 2.440866e-03 8.735475e-04 3.854329e-03 9.923538e-01 -6.004103e-02 -1.878756e-04 1.667804e-03 8.732003e-04 3.853990e-03 4.301436e-03 3.137388e-03 -1.854444e-04 1.686850e-03 9.922829e-01 -6.022105e-02 9.923168e-01 -6.036727e-02 -2.234133e-04 1.520061e-03 5.737298e-03 2.290238e-03 4.862107e-04 4.129367e-03 -2.183168e-04 1.544002e-03 9.922662e-01 -6.042853e-02 4.852537e-04 4.142204e-03 5.753309e-03 3.045452e-03
2.712500e+10 4.214325e-03 2.487702e-03 9.080872e-04 3.975658e-03 9.921684e-01 -6.198489e-02 -1.855652e-04 1.725899e-03 9.077237e-04 3.975314e-03 4.313972e-03 3.207038e-03 -1.831045e-04 1.745523e-03 9.920960e-01 -6.217037e-02 9.921318e-01 -6.231927e-02 -2.224165e-04 1.574038e-03 5.849863e-03 2.326152e-03 4.939694e-04 4.262062e-03 -2.170713e-04 1.598753e-03 9.920807e-01 -6.238223e-02 4.929419e-04 4.275374e-03 5.866364e-03 3.106471e-03
2.800000e+10 4.219569e-03 2.532675e-03 9.433783e-04 4.096574e-03 9.919804e-01 -6.392577e-02 -1.830469e-04 1.784182e-03 9.429988e-04 4.096225e-03 4.324625e-03 3.274792e-03 -1.805583e-04 1.804379e-03 9.919066e-01 -6.411669e-02 9.919446e-01 -6.426844e-02 -2.211954e-04 1.628230e-03 5.963773e-03 2.359520e-03 5.016630e-04 4.394511e-03 -2.155955e-04 1.653720e-03 9.918930e-01 -6.433307e-02 5.005617e-04 4.408302e-03 5.980778e-03 3.164942e-03
2.887500e+10 4.222676e-03 2.575889e-03 9.794114e-04 4.217094e-03 9.917900e-01 -6.586387e-02 -1.803120e-04 1.842649e-03 9.790161e-04 4.216741e-03 4.333310e-03 3.340756e-03 -1.777975e-04 1.863417e-03 9.917148e-01 -6.606019e-02 9.917553e-01 -6.621499e-02 -2.197409e-04 1.682633e-03 6.078927e-03 2.390419e-03 5.092813e-04 4.526734e-03 -2.138803e-04 1.708895e-03 9.917032e-01 -6.628128e-02 5.081030e-04 4.541007e-03 6.096451e-03 3.220942e-03
2.975000e+10 4.223571e-03 2.617456e-03 1.016179e-03 4.337232e-03 9.915973e-01 -6.779935e-02 -1.773527e-04 1.901300e-03 1.015768e-03 4.336875e-03 4.339949e-03 3.405041e-03 -1.748141e-04 1.922636e-03 9.915207e-01 -6.800106e-02 9.915639e-01 -6.815914e-02 -2.180443e-04 1.737240e-03 6.195235e-03 2.418928e-03 5.168160e-04 4.658747e-03 -2.119171e-04 1.764274e-03 9.915113e-01 -6.822707e-02 5.155573e-04 4.673506e-03 6.213292e-03 3.274552e-03
3.062500e+10 4.222183e-03 2.657487e-03 1.053676e-03 4.457006e-03 9.914023e-01 -6.973243e-02 -1.741608e-04 1.960132e-03 1.053250e-03 4.456644e-03 4.344474e-03 3.467757e-03 -1.716002e-04 1.982034e-03 9.913243e-01 -6.993949e-02 9.913704e-01 -7.010110e-02 -2.160978e-04 1.792045e-03 6.312615e-03 2.445130e-03 5.242601e-04 4.790570e-03 -2.096982e-04 1.819850e-03 9.913174e-01 -7.017067e-02 5.229177e-04 4.805818e-03 6.331221e-03 3.325854e-03
3.150000e+10 4.218455e-03 2.696095e-03 1.091899e-03 4.576430e-03 9.912052e-01 -7.166327e-02 -1.707290e-04 2.019143e-03 1.091457e-03 4.576063e-03 4.346826e-03 3.529017e-03 -1.681482e-04 2.041607e-03 9.911256e-01 -7.187567e-02 9.911750e-01 -7.204108e-02 -2.138941e-04 1.847043e-03 6.430994e-03 2.469111e-03 5.316085e-04 4.922221e-03 -2.072163e-04 1.875616e-03 9.911215e-01 -7.211227e-02 5.301790e-04 4.937962e-03 6.450164e-03 3.374933e-03
3.237500e+10 4.212338e-03 2.733395e-03 1.130845e-03 4.695519e-03 9.910058e-01 -7.359206e-02 -1.670497e-04 2.078329e-03 1.130388e-03 4.695147e-03 4.346958e-03 3.588936e-03 -1.644510e-04 2.101353e-03 9.909248e-01 -7.380979e-02 9.909775e-01 -7.397930e-02 -2.114264e-04 1.902225e-03 6.550308e-03 2.490955e-03 5.388572e-04 5.053719e-03 -2.044647e-04 1.931567e-03 9.909236e-01 -7.405210e-02 5.373371e-04 5.069957e-03 6.570058e-03 3.421875e-03
3.325000e+10 4.203792e-03 2.769501e-03 1.170516e-03 4.814287e-03 9.908043e-01 -7.551900e-02 -1.631160e-04 2.137687e-03 1.170043e-03 4.813909e-03 4.344829e-03 3.647625e-03 -1.605015e-04 2.161270e-03 9.907218e-01 -7.574203e-02 9.907780e-01 -7.591593e-02 -2.086888e-04 1.957587e-03 6.670502e-03 2.510749e-03 5.460038e-04 5.185082e-03 -2.014374e-04 1.987696e-03 9.907236e-01 -7.599034e-02 5.443898e-04 5.201819e-03 6.690848e-03 3.466768e-03
3.412500e+10 4.192784e-03 2.804524e-03 1.210911e-03 4.932747e-03 9.906006e-01 -7.744424e-02 -1.589213e-04 2.197214e-03 1.210424e-03 4.932363e-03 4.340408e-03 3.705197e-03 -1.562929e-04 2.221353e-03 9.905167e-01 -7.767256e-02 9.905765e-01 -7.785119e-02 -2.056757e-04 2.013121e-03 6.791528e-03 2.528579e-03 5.530474e-04 5.316328e-03 -1.981290e-04 2.043996e-03 9.905217e-01 -7.792720e-02 5.513359e-04 5.333569e-03 6.812487e-03 3.509696e-03
3.500000e+10 4.179292e-03 2.838576e-03 1.252036e-03 5.050912e-03 9.903948e-01 -7.936797e-02 -1.544590e-04 2.256905e-03 1.251533e-03 5.050522e-03 4.333673e-03 3.761762e-03 -1.518190e-04 2.281600e-03 9.903093e-01 -7.960157e-02 9.903729e-01 -7.978524e-02 -2.023822e-04 2.068820e-03 6.913349e-03 2.544531e-03 5.599883e-04 5.447475e-03 -1.945346e-04 2.100460e-03 9.903177e-01 -7.986284e-02 5.581758e-04 5.465222e-03 6.934936e-03 3.550745e-03
3.587500e+10 4.163300e-03 2.871766e-03 1.293892e-03 5.168794e-03 9.901867e-01 -8.129035e-02 -1.497232e-04 2.316758e-03 1.293374e-03 5.168396e-03 4.324608e-03 3.817429e-03 -1.470736e-04 2.342006e-03 9.900998e-01 -8.152920e-02 9.901671e-01 -8.171826e-02 -1.988042e-04 2.124677e-03 7.035932e-03 2.558687e-03 5.668278e-04 5.578539e-03 -1.906500e-04 2.157082e-03 9.901115e-01 -8.179744e-02 5.649109e-04 5.596796e-03 7.058166e-03 3.589999e-03
3.675000e+10 4.144801e-03 2.904200e-03 1.336487e-03 5.286401e-03 9.899764e-01 -8.321152e-02 -1.447081e-04 2.376768e-03 1.335953e-03 5.285997e-03 4.313206e-03 3.872303e-03 -1.420509e-04 2.402567e-03 9.898880e-01 -8.345563e-02 9.899591e-01 -8.365039e-02 -1.949378e-04 2.180687e-03 7.159253e-03 2.571130e-03 5.735687e-04 5.709537e-03 -1.864713e-04 2.213854e-03 9.899031e-01 -8.373116e-02 5.715439e-04 5.728308e-03 7.182151e-03 3.627539e-03
3.762500e+10 4.123793e-03 2.935981e-03 1.379825e-03 5.403744e-03 9.897639e-01 -8.513164e-02 -1.394083e-04 2.436930e-03 1.379277e-03 5.403332e-03 4.299466e-03 3.926486e-03 -1.367456e-04 2.463280e-03 9.896739e-01 -8.538099e-02 9.897488e-01 -8.558179e-02 -1.907797e-04 2.236841e-03 7.283296e-03 2.581938e-03 5.802147e-04 5.840484e-03 -1.819954e-04 2.270771e-03 9.896924e-01 -8.566414e-02 5.780784e-04 5.859772e-03 7.306876e-03 3.663445e-03
3.850000e+10 4.100282e-03 2.967209e-03 1.423916e-03 5.520830e-03 9.895490e-01 -8.705084e-02 -1.338188e-04 2.497241e-03 1.423351e-03 5.520410e-03 4.283395e-03 3.980076e-03 -1.311526e-04 2.524140e-03 9.894575e-01 -8.730543e-02 9.895361e-01 -8.751259e-02 -1.863272e-04 2.293135e-03 7.408049e-03 2.591189e-03 5.867703e-04 5.971397e-03 -1.772194e-04 2.327826e-03 9.894793e-01 -8.759652e-02 5.845190e-04 5.991205e-03 7.432331e-03 3.697794e-03
